T3760 000:003.415   SEGGER J-Link V7.92k Log File
T3760 000:003.598   DLL Compiled: Oct 18 2023 14:58:31
T3760 000:003.610   Logging started @ 2025-01-13 06:09
T3760 000:003.620   Process: C:\Keil_v5\UV4\UV4.exe
T3760 000:003.632 - 3.629ms
T3760 000:003.643 JLINK_SetWarnOutHandler(...)
T3760 000:003.653 - 0.010ms
T3760 000:003.663 JLINK_OpenEx(...)
T3760 000:005.969   Firmware: J-Link V11 compiled Oct  6 2021 11:22:15
T3760 000:006.615   Firmware: J-Link V11 compiled Oct  6 2021 11:22:15
T3760 000:028.232   Hardware: V11.00
T3760 000:028.283   S/N: 941000024
T3760 000:028.296   OEM: SEGGER
T3760 000:028.310   Feature(s): GDB, JFlash, FlashDL, RDI, FlashBP
T3760 000:030.446   Bootloader: (Could not read)
T3760 000:031.728   TELNET listener socket opened on port 19021
T3760 000:031.875   WEBSRV WEBSRV_Init(): Starting webserver thread(s)
T3760 000:031.988   WEBSRV Webserver running on local port 19080
T3760 000:032.085   Looking for J-Link GUI Server exe at: C:\Keil_v5\ARM\Segger\JLinkGUIServer.exe
T3760 000:032.191   Looking for J-Link GUI Server exe at: C:\Program Files\SEGGER\JLink\JLinkGUIServer.exe
T3760 000:032.230   Forking J-Link GUI Server: C:\Program Files\SEGGER\JLink\JLinkGUIServer.exe
T3760 000:086.006   J-Link GUI Server info: "J-Link GUI server V7.56 "
T3760 000:086.321   J-Link GUI Server: Connection breakdown.
T3760 000:086.356 - 82.680ms returns "O.K."
T3760 000:086.374 JLINK_GetEmuCaps()
T3760 000:086.386 - 0.010ms returns 0xB9FF7BBF
T3760 000:086.396 JLINK_TIF_GetAvailable(...)
T3760 000:086.892 - 0.495ms
T3760 000:086.918 JLINK_SetErrorOutHandler(...)
T3760 000:086.928 - 0.009ms
T3760 000:086.960 JLINK_ExecCommand("ProjectFile = "D:\Project\Tracking\FS-R11P-BT-BS\trunk\STM32G070CBT6\MDK-ARM\JLinkSettings.ini"", ...). 
T3760 000:099.523 - 12.563ms returns 0x00
T3760 000:101.426 JLINK_ExecCommand("Device = STM32G070CBTx", ...). 
T3760 000:102.961   Device "STM32G070CB" selected.
T3760 000:104.235 - 2.781ms returns 0x00
T3760 000:104.256 JLINK_ExecCommand("DisableConnectionTimeout", ...). 
T3760 000:104.269 - 0.001ms returns 0x01
T3760 000:104.279 JLINK_GetHardwareVersion()
T3760 000:104.289 - 0.009ms returns 110000
T3760 000:104.304 JLINK_GetDLLVersion()
T3760 000:104.314 - 0.009ms returns 79211
T3760 000:104.324 JLINK_GetOEMString(...)
T3760 000:104.334 JLINK_GetFirmwareString(...)
T3760 000:104.344 - 0.010ms
T3760 000:108.524 JLINK_GetDLLVersion()
T3760 000:108.557 - 0.033ms returns 79211
T3760 000:108.576 JLINK_GetCompileDateTime()
T3760 000:108.585 - 0.009ms
T3760 000:109.798 JLINK_GetFirmwareString(...)
T3760 000:109.821 - 0.022ms
T3760 000:121.128 JLINK_GetHardwareVersion()
T3760 000:121.160 - 0.031ms returns 110000
T3760 000:122.511 JLINK_GetSN()
T3760 000:122.537 - 0.025ms returns 941000024
T3760 000:123.664 JLINK_GetOEMString(...)
T3760 000:126.031 JLINK_TIF_Select(JLINKARM_TIF_SWD)
T3760 000:127.756 - 1.722ms returns 0x00
T3760 000:127.795 JLINK_HasError()
T3760 000:127.818 JLINK_SetSpeed(5000)
T3760 000:128.154 - 0.337ms
T3760 000:128.177 JLINK_GetId()
T3760 000:130.198   InitTarget() start
T3760 000:130.241    J-Link Script File: Executing InitTarget()
T3760 000:138.844   SWD selected. Executing JTAG -> SWD switching sequence.
T3760 000:143.214   DAP initialized successfully.
T3760 000:157.158   InitTarget() end - Took 25.3ms
T3760 000:159.481   Found SW-DP with ID 0x0BC11477
T3760 000:165.190   DPIDR: 0x0BC11477
T3760 000:166.457   CoreSight SoC-400 or earlier
T3760 000:167.722   Scanning AP map to find all available APs
T3760 000:169.977   AP[1]: Stopped AP scan as end of AP map has been reached
T3760 000:171.362   AP[0]: AHB-AP (IDR: 0x04770031)
T3760 000:172.664   Iterating through AP map to find AHB-AP to use
T3760 000:176.273   AP[0]: Core found
T3760 000:187.410   AP[0]: AHB-AP ROM base: 0xF0000000
T3760 000:189.114   CPUID register: 0x410CC601. Implementer code: 0x41 (ARM)
T3760 000:190.480   Found Cortex-M0 r0p1, Little endian.
T3760 000:191.343   -- Max. mem block: 0x00004E70
T3760 000:192.152   CPU_ReadMem(4 bytes @ 0xE000EDF0)
T3760 000:192.649   CPU_ReadMem(4 bytes @ 0xE0002000)
T3760 000:194.578   FPUnit: 4 code (BP) slots and 0 literal slots
T3760 000:194.610   CPU_ReadMem(4 bytes @ 0xE000EDFC)
T3760 000:195.060   CPU_WriteMem(4 bytes @ 0xE000EDFC)
T3760 000:195.667   CPU_ReadMem(4 bytes @ 0xE0001000)
T3760 000:196.174   CPU_WriteMem(4 bytes @ 0xE0001000)
T3760 000:198.923   CoreSight components:
T3760 000:204.388   ROMTbl[0] @ F0000000
T3760 000:204.413   CPU_ReadMem(64 bytes @ 0xF0000000)
T3760 000:205.109   CPU_ReadMem(32 bytes @ 0xE00FFFE0)
T3760 000:207.074   [0][0]: E00FF000 CID B105100D PID 000BB4C0 ROM Table
T3760 000:208.329   ROMTbl[1] @ E00FF000
T3760 000:208.354   CPU_ReadMem(64 bytes @ 0xE00FF000)
T3760 000:208.986   CPU_ReadMem(32 bytes @ 0xE000EFE0)
T3760 000:210.867   [1][0]: E000E000 CID B105E00D PID 000BB008 SCS
T3760 000:210.896   CPU_ReadMem(32 bytes @ 0xE0001FE0)
T3760 000:212.678   [1][1]: E0001000 CID B105E00D PID 000BB00A DWT
T3760 000:212.703   CPU_ReadMem(32 bytes @ 0xE0002FE0)
T3760 000:220.945   [1][2]: E0002000 CID B105E00D PID 000BB00B FPB
T3760 000:221.381 - 93.203ms returns 0x0BC11477
T3760 000:221.474 JLINK_GetDLLVersion()
T3760 000:221.485 - 0.011ms returns 79211
T3760 000:221.495 JLINK_CORE_GetFound()
T3760 000:221.505 - 0.009ms returns 0x60000FF
T3760 000:221.523 JLINK_GetDebugInfo(0x100 = JLINKARM_ROM_TABLE_ADDR_INDEX)
T3760 000:221.533   Value=0xF0000000
T3760 000:221.547 - 0.024ms returns 0
T3760 000:222.809 JLINK_GetDebugInfo(0x100 = JLINKARM_ROM_TABLE_ADDR_INDEX)
T3760 000:222.828   Value=0xF0000000
T3760 000:222.843 - 0.034ms returns 0
T3760 000:222.853 JLINK_GetDebugInfo(0x101 = JLINKARM_DEBUG_INFO_ETM_ADDR_INDEX)
T3760 000:222.862   Value=0x00000000
T3760 000:222.876 - 0.023ms returns 0
T3760 000:222.887 JLINK_ReadMemEx(0xE0041FF0, 0x10 Bytes, Flags = 0x02000004)
T3760 000:222.916   CPU_ReadMem(16 bytes @ 0xE0041FF0)
T3760 000:223.512   Data:  00 00 00 00 00 00 00 00 00 00 00 00 00 00 00 00
T3760 000:223.529 - 0.642ms returns 16 (0x10)
T3760 000:223.540 JLINK_GetDebugInfo(0x102 = JLINKARM_DEBUG_INFO_MTB_ADDR_INDEX)
T3760 000:223.550   Value=0x00000000
T3760 000:223.563 - 0.023ms returns 0
T3760 000:223.573 JLINK_GetDebugInfo(0x103 = JLINKARM_DEBUG_INFO_TPIU_ADDR_INDEX)
T3760 000:223.583   Value=0x00000000
T3760 000:223.597 - 0.023ms returns 0
T3760 000:223.607 JLINK_ReadMemEx(0xE0040FF0, 0x10 Bytes, Flags = 0x02000004)
T3760 000:223.619   CPU_ReadMem(16 bytes @ 0xE0040FF0)
T3760 000:224.134   Data:  00 00 00 00 00 00 00 00 00 00 00 00 00 00 00 00
T3760 000:224.158 - 0.550ms returns 16 (0x10)
T3760 000:224.169 JLINK_GetDebugInfo(0x104 = JLINKARM_DEBUG_INFO_ITM_ADDR_INDEX)
T3760 000:224.179   Value=0xE0000000
T3760 000:224.192 - 0.023ms returns 0
T3760 000:224.202 JLINK_GetDebugInfo(0x105 = JLINKARM_DEBUG_INFO_DWT_ADDR_INDEX)
T3760 000:224.212   Value=0xE0001000
T3760 000:224.226 - 0.023ms returns 0
T3760 000:224.235 JLINK_GetDebugInfo(0x106 = JLINKARM_DEBUG_INFO_FPB_ADDR_INDEX)
T3760 000:224.245   Value=0xE0002000
T3760 000:224.259 - 0.023ms returns 0
T3760 000:224.269 JLINK_GetDebugInfo(0x107 = JLINKARM_DEBUG_INFO_NVIC_ADDR_INDEX)
T3760 000:224.278   Value=0xE000E000
T3760 000:224.291 - 0.022ms returns 0
T3760 000:224.301 JLINK_GetDebugInfo(0x10C = JLINKARM_DEBUG_INFO_DBG_ADDR_INDEX)
T3760 000:224.311   Value=0xE000EDF0
T3760 000:224.324 - 0.023ms returns 0
T3760 000:224.339 JLINK_GetDebugInfo(0x01 = Unknown)
T3760 000:224.351   Value=0x00000000
T3760 000:224.365 - 0.030ms returns 0
T3760 000:224.375 JLINK_ReadMemU32(0xE000ED00, 0x1 Items)
T3760 000:224.388   CPU_ReadMem(4 bytes @ 0xE000ED00)
T3760 000:224.933   Data:  01 C6 0C 41
T3760 000:224.955   Debug reg: CPUID
T3760 000:224.968 - 0.593ms returns 1 (0x1)
T3760 000:224.979 JLINK_GetDebugInfo(0x10F = JLINKARM_DEBUG_INFO_HAS_CORTEX_M_SECURITY_EXT_INDEX)
T3760 000:224.989   Value=0x00000000
T3760 000:225.002 - 0.023ms returns 0
T3760 000:225.013 JLINK_HasError()
T3760 000:225.023 JLINK_SetResetType(JLINKARM_CM3_RESET_TYPE_NORMAL)
T3760 000:225.033 - 0.009ms returns JLINKARM_CM3_RESET_TYPE_NORMAL
T3760 000:225.093 JLINK_Reset()
T3760 000:225.115   CPU is running
T3760 000:225.130   CPU_WriteMem(4 bytes @ 0xE000EDF0)
T3760 000:225.671   CPU is running
T3760 000:225.691   CPU_WriteMem(4 bytes @ 0xE000EDFC)
T3760 000:227.523   Reset: Halt core after reset via DEMCR.VC_CORERESET.
T3760 000:229.681   Reset: Reset device via AIRCR.SYSRESETREQ.
T3760 000:229.706   CPU is running
T3760 000:229.721   CPU_WriteMem(4 bytes @ 0xE000ED0C)
T3760 000:284.041   CPU_ReadMem(4 bytes @ 0xE000EDF0)
T3760 000:284.540   CPU_ReadMem(4 bytes @ 0xE000EDF0)
T3760 000:287.210   CPU_WriteMem(4 bytes @ 0xE000EDFC)
T3760 000:294.181   CPU_ReadMem(4 bytes @ 0xE000EDF0)
T3760 000:296.912   CPU_WriteMem(4 bytes @ 0xE0002000)
T3760 000:297.429   CPU_ReadMem(4 bytes @ 0xE000EDFC)
T3760 000:297.933   CPU_ReadMem(4 bytes @ 0xE0001000)
T3760 000:298.419   CPU_WriteMem(4 bytes @ 0xE0001000)
T3760 000:298.949 - 73.856ms
T3760 000:298.978 JLINK_Halt()
T3760 000:298.988 - 0.010ms returns 0x00
T3760 000:298.998 JLINK_ReadMemU32(0xE000EDF0, 0x1 Items)
T3760 000:299.026   CPU_ReadMem(4 bytes @ 0xE000EDF0)
T3760 000:299.520   Data:  03 00 03 00
T3760 000:299.546   Debug reg: DHCSR
T3760 000:299.560 - 0.561ms returns 1 (0x1)
T3760 000:299.578 JLINK_WriteU32_64(0xE000EDF0, 0xA05F0003)
T3760 000:299.589   Debug reg: DHCSR
T3760 000:299.865   CPU_WriteMem(4 bytes @ 0xE000EDF0)
T3760 000:300.342 - 0.766ms returns 0 (0x00000000)
T3760 000:300.362 JLINK_WriteU32_64(0xE000EDFC, 0x01000000)
T3760 000:300.372   Debug reg: DEMCR
T3760 000:300.389   CPU_WriteMem(4 bytes @ 0xE000EDFC)
T3760 000:300.921 - 0.559ms returns 0 (0x00000000)
T3760 000:306.013 JLINK_GetHWStatus(...)
T3760 000:306.479 - 0.464ms returns 0
T3760 000:310.101 JLINK_GetNumBPUnits(Type = 0xFFFFFF00)
T3760 000:310.125 - 0.024ms returns 0x04
T3760 000:310.138 JLINK_GetNumBPUnits(Type = 0xF0)
T3760 000:310.148 - 0.009ms returns 0x2000
T3760 000:310.158 JLINK_GetNumWPUnits()
T3760 000:310.167 - 0.009ms returns 2
T3760 000:324.625 JLINK_GetSpeed()
T3760 000:324.650 - 0.025ms returns 5000
T3760 000:326.977 JLINK_ReadMemU32(0xE000E004, 0x1 Items)
T3760 000:327.007   CPU_ReadMem(4 bytes @ 0xE000E004)
T3760 000:327.586   Data:  00 00 00 00
T3760 000:327.610 - 0.633ms returns 1 (0x1)
T3760 000:327.623 JLINK_Halt()
T3760 000:327.633 - 0.009ms returns 0x00
T3760 000:327.643 JLINK_IsHalted()
T3760 000:327.653 - 0.009ms returns TRUE
T3760 000:330.315 JLINK_WriteMem(0x20000000, 0x218 Bytes, ...)
T3760 000:330.337   Data:  00 BE 0A E0 0D 78 2D 06 68 40 08 24 40 00 00 D3 ...
T3760 000:330.628   CPU_WriteMem(536 bytes @ 0x20000000)
T3760 000:332.658 - 2.343ms returns 0x218
T3760 000:332.705 JLINK_HasError()
T3760 000:332.719 JLINK_WriteReg(R0, 0x08000000)
T3760 000:332.743 - 0.023ms returns 0
T3760 000:332.753 JLINK_WriteReg(R1, 0x01E84800)
T3760 000:332.763 - 0.009ms returns 0
T3760 000:332.773 JLINK_WriteReg(R2, 0x00000001)
T3760 000:332.785 - 0.011ms returns 0
T3760 000:332.795 JLINK_WriteReg(R3, 0x00000000)
T3760 000:332.804 - 0.009ms returns 0
T3760 000:332.814 JLINK_WriteReg(R4, 0x00000000)
T3760 000:332.824 - 0.009ms returns 0
T3760 000:332.834 JLINK_WriteReg(R5, 0x00000000)
T3760 000:332.845 - 0.011ms returns 0
T3760 000:332.855 JLINK_WriteReg(R6, 0x00000000)
T3760 000:332.865 - 0.009ms returns 0
T3760 000:332.874 JLINK_WriteReg(R7, 0x00000000)
T3760 000:332.884 - 0.009ms returns 0
T3760 000:332.903 JLINK_WriteReg(R8, 0x00000000)
T3760 000:332.914 - 0.019ms returns 0
T3760 000:332.925 JLINK_WriteReg(R9, 0x20000200)
T3760 000:332.935 - 0.009ms returns 0
T3760 000:332.944 JLINK_WriteReg(R10, 0x00000000)
T3760 000:332.954 - 0.009ms returns 0
T3760 000:332.964 JLINK_WriteReg(R11, 0x00000000)
T3760 000:332.973 - 0.009ms returns 0
T3760 000:332.983 JLINK_WriteReg(R12, 0x00000000)
T3760 000:332.993 - 0.009ms returns 0
T3760 000:333.003 JLINK_WriteReg(R13 (SP), 0x20008000)
T3760 000:333.015 - 0.011ms returns 0
T3760 000:333.025 JLINK_WriteReg(R14, 0x20000001)
T3760 000:333.035 - 0.009ms returns 0
T3760 000:333.050 JLINK_WriteReg(R15 (PC), 0x20000020)
T3760 000:333.064 - 0.017ms returns 0
T3760 000:333.074 JLINK_WriteReg(XPSR, 0x01000000)
T3760 000:333.083 - 0.009ms returns 0
T3760 000:333.093 JLINK_WriteReg(MSP, 0x20008000)
T3760 000:333.103 - 0.009ms returns 0
T3760 000:333.113 JLINK_WriteReg(PSP, 0x20008000)
T3760 000:333.123 - 0.009ms returns 0
T3760 000:333.133 JLINK_WriteReg(CFBP, 0x00000000)
T3760 000:333.142 - 0.009ms returns 0
T3760 000:333.153 JLINK_SetBPEx(Addr = 0x20000000, Type = 0xFFFFFFF2)
T3760 000:333.168   CPU_ReadMem(2 bytes @ 0x20000000)
T3760 000:333.631 - 0.478ms returns 0x00000001
T3760 000:333.648 JLINK_Go()
T3760 000:333.660   CPU_WriteMem(2 bytes @ 0x20000000)
T3760 000:334.135   CPU_ReadMem(4 bytes @ 0xE0001000)
T3760 000:334.628   CPU_WriteMem(4 bytes @ 0xE0001000)
T3760 000:335.081   CPU_WriteMem(4 bytes @ 0xE0002008)
T3760 000:335.106   CPU_WriteMem(4 bytes @ 0xE000200C)
T3760 000:335.120   CPU_WriteMem(4 bytes @ 0xE0002010)
T3760 000:335.134   CPU_WriteMem(4 bytes @ 0xE0002014)
T3760 000:335.905   CPU_WriteMem(4 bytes @ 0xE0001004)
T3760 000:339.652   Memory map 'after startup completion point' is active
T3760 000:339.677 - 6.028ms
T3760 000:339.688 JLINK_IsHalted()
T3760 000:341.975   CPU_ReadMem(2 bytes @ 0x20000000)
T3760 000:342.450 - 2.761ms returns TRUE
T3760 000:342.464 JLINK_ReadReg(R15 (PC))
T3760 000:342.475 - 0.011ms returns 0x20000000
T3760 000:342.484 JLINK_ClrBPEx(BPHandle = 0x00000001)
T3760 000:342.494 - 0.009ms returns 0x00
T3760 000:342.504 JLINK_ReadReg(R0)
T3760 000:342.514 - 0.009ms returns 0x00000000
T3760 000:342.674 JLINK_HasError()
T3760 000:342.701 JLINK_WriteReg(R0, 0x08000000)
T3760 000:342.712 - 0.011ms returns 0
T3760 000:342.722 JLINK_WriteReg(R1, 0x01E84800)
T3760 000:342.734 - 0.011ms returns 0
T3760 000:342.744 JLINK_WriteReg(R2, 0x00000001)
T3760 000:342.754 - 0.009ms returns 0
T3760 000:342.764 JLINK_WriteReg(R3, 0x00000000)
T3760 000:342.773 - 0.009ms returns 0
T3760 000:342.783 JLINK_WriteReg(R4, 0x00000000)
T3760 000:342.793 - 0.009ms returns 0
T3760 000:342.803 JLINK_WriteReg(R5, 0x00000000)
T3760 000:342.816 - 0.012ms returns 0
T3760 000:342.826 JLINK_WriteReg(R6, 0x00000000)
T3760 000:342.836 - 0.009ms returns 0
T3760 000:342.846 JLINK_WriteReg(R7, 0x00000000)
T3760 000:342.855 - 0.009ms returns 0
T3760 000:342.865 JLINK_WriteReg(R8, 0x00000000)
T3760 000:342.875 - 0.009ms returns 0
T3760 000:342.885 JLINK_WriteReg(R9, 0x20000200)
T3760 000:342.895 - 0.009ms returns 0
T3760 000:342.907 JLINK_WriteReg(R10, 0x00000000)
T3760 000:342.917 - 0.009ms returns 0
T3760 000:342.927 JLINK_WriteReg(R11, 0x00000000)
T3760 000:342.936 - 0.009ms returns 0
T3760 000:342.946 JLINK_WriteReg(R12, 0x00000000)
T3760 000:342.956 - 0.009ms returns 0
T3760 000:342.966 JLINK_WriteReg(R13 (SP), 0x20008000)
T3760 000:342.976 - 0.010ms returns 0
T3760 000:342.986 JLINK_WriteReg(R14, 0x20000001)
T3760 000:342.995 - 0.009ms returns 0
T3760 000:343.005 JLINK_WriteReg(R15 (PC), 0x200000CC)
T3760 000:343.014 - 0.009ms returns 0
T3760 000:343.025 JLINK_WriteReg(XPSR, 0x01000000)
T3760 000:343.034 - 0.010ms returns 0
T3760 000:343.044 JLINK_WriteReg(MSP, 0x20008000)
T3760 000:343.053 - 0.009ms returns 0
T3760 000:343.063 JLINK_WriteReg(PSP, 0x20008000)
T3760 000:343.073 - 0.009ms returns 0
T3760 000:343.082 JLINK_WriteReg(CFBP, 0x00000000)
T3760 000:343.092 - 0.009ms returns 0
T3760 000:343.102 JLINK_SetBPEx(Addr = 0x20000000, Type = 0xFFFFFFF2)
T3760 000:343.112 - 0.010ms returns 0x00000002
T3760 000:343.122 JLINK_Go()
T3760 000:343.135   CPU_ReadMem(4 bytes @ 0xE0001000)
T3760 000:345.588 - 2.465ms
T3760 000:345.607 JLINK_IsHalted()
T3760 000:346.050 - 0.443ms returns FALSE
T3760 000:346.070 JLINK_HasError()
T3760 000:357.653 JLINK_IsHalted()
T3760 000:358.253 - 0.598ms returns FALSE
T3760 000:358.276 JLINK_HasError()
T3760 000:360.642 JLINK_IsHalted()
T3760 000:361.260 - 0.618ms returns FALSE
T3760 000:361.280 JLINK_HasError()
T3760 000:363.148 JLINK_IsHalted()
T3760 000:363.672 - 0.523ms returns FALSE
T3760 000:363.736 JLINK_HasError()
T3760 000:365.631 JLINK_IsHalted()
T3760 000:366.191 - 0.561ms returns FALSE
T3760 000:366.215 JLINK_HasError()
T3760 000:369.630 JLINK_IsHalted()
T3760 000:371.826   CPU_ReadMem(2 bytes @ 0x20000000)
T3760 000:372.281 - 2.651ms returns TRUE
T3760 000:372.303 JLINK_ReadReg(R15 (PC))
T3760 000:372.315 - 0.012ms returns 0x20000000
T3760 000:372.325 JLINK_ClrBPEx(BPHandle = 0x00000002)
T3760 000:372.335 - 0.010ms returns 0x00
T3760 000:372.346 JLINK_ReadReg(R0)
T3760 000:372.356 - 0.009ms returns 0x00000000
T3760 000:427.898 JLINK_HasError()
T3760 000:427.935 JLINK_WriteReg(R0, 0x00000001)
T3760 000:427.949 - 0.013ms returns 0
T3760 000:427.961 JLINK_WriteReg(R1, 0x01E84800)
T3760 000:427.970 - 0.009ms returns 0
T3760 000:427.980 JLINK_WriteReg(R2, 0x00000001)
T3760 000:427.992 - 0.011ms returns 0
T3760 000:428.002 JLINK_WriteReg(R3, 0x00000000)
T3760 000:428.011 - 0.009ms returns 0
T3760 000:428.023 JLINK_WriteReg(R4, 0x00000000)
T3760 000:428.036 - 0.013ms returns 0
T3760 000:428.048 JLINK_WriteReg(R5, 0x00000000)
T3760 000:428.058 - 0.009ms returns 0
T3760 000:428.072 JLINK_WriteReg(R6, 0x00000000)
T3760 000:428.088 - 0.016ms returns 0
T3760 000:428.099 JLINK_WriteReg(R7, 0x00000000)
T3760 000:428.108 - 0.009ms returns 0
T3760 000:428.118 JLINK_WriteReg(R8, 0x00000000)
T3760 000:428.128 - 0.009ms returns 0
T3760 000:428.138 JLINK_WriteReg(R9, 0x20000200)
T3760 000:428.147 - 0.009ms returns 0
T3760 000:428.157 JLINK_WriteReg(R10, 0x00000000)
T3760 000:428.167 - 0.009ms returns 0
T3760 000:428.177 JLINK_WriteReg(R11, 0x00000000)
T3760 000:428.187 - 0.009ms returns 0
T3760 000:428.197 JLINK_WriteReg(R12, 0x00000000)
T3760 000:428.208 - 0.011ms returns 0
T3760 000:428.218 JLINK_WriteReg(R13 (SP), 0x20008000)
T3760 000:428.228 - 0.010ms returns 0
T3760 000:428.281 JLINK_WriteReg(R14, 0x20000001)
T3760 000:428.292 - 0.011ms returns 0
T3760 000:428.302 JLINK_WriteReg(R15 (PC), 0x2000009E)
T3760 000:428.314 - 0.011ms returns 0
T3760 000:428.323 JLINK_WriteReg(XPSR, 0x01000000)
T3760 000:428.333 - 0.009ms returns 0
T3760 000:428.342 JLINK_WriteReg(MSP, 0x20008000)
T3760 000:428.352 - 0.009ms returns 0
T3760 000:428.361 JLINK_WriteReg(PSP, 0x20008000)
T3760 000:428.372 - 0.011ms returns 0
T3760 000:428.382 JLINK_WriteReg(CFBP, 0x00000000)
T3760 000:428.391 - 0.009ms returns 0
T3760 000:428.401 JLINK_SetBPEx(Addr = 0x20000000, Type = 0xFFFFFFF2)
T3760 000:428.412 - 0.010ms returns 0x00000003
T3760 000:428.434 JLINK_Go()
T3760 000:428.460   CPU_ReadMem(4 bytes @ 0xE0001000)
T3760 000:431.045 - 2.611ms
T3760 000:431.064 JLINK_IsHalted()
T3760 000:433.159   CPU_ReadMem(2 bytes @ 0x20000000)
T3760 000:433.651 - 2.587ms returns TRUE
T3760 000:433.664 JLINK_ReadReg(R15 (PC))
T3760 000:433.674 - 0.010ms returns 0x20000000
T3760 000:433.684 JLINK_ClrBPEx(BPHandle = 0x00000003)
T3760 000:433.693 - 0.009ms returns 0x00
T3760 000:433.703 JLINK_ReadReg(R0)
T3760 000:433.713 - 0.009ms returns 0x00000000
T3760 000:437.248 JLINK_WriteMem(0x20000000, 0x218 Bytes, ...)
T3760 000:437.264   Data:  00 BE 0A E0 0D 78 2D 06 68 40 08 24 40 00 00 D3 ...
T3760 000:437.284   CPU_WriteMem(536 bytes @ 0x20000000)
T3760 000:439.352 - 2.104ms returns 0x218
T3760 000:439.382 JLINK_HasError()
T3760 000:439.393 JLINK_WriteReg(R0, 0x08000000)
T3760 000:439.404 - 0.010ms returns 0
T3760 000:439.413 JLINK_WriteReg(R1, 0x01E84800)
T3760 000:439.423 - 0.009ms returns 0
T3760 000:439.432 JLINK_WriteReg(R2, 0x00000002)
T3760 000:439.442 - 0.009ms returns 0
T3760 000:439.451 JLINK_WriteReg(R3, 0x00000000)
T3760 000:439.460 - 0.009ms returns 0
T3760 000:439.470 JLINK_WriteReg(R4, 0x00000000)
T3760 000:439.479 - 0.009ms returns 0
T3760 000:439.488 JLINK_WriteReg(R5, 0x00000000)
T3760 000:439.498 - 0.009ms returns 0
T3760 000:439.507 JLINK_WriteReg(R6, 0x00000000)
T3760 000:439.516 - 0.009ms returns 0
T3760 000:439.526 JLINK_WriteReg(R7, 0x00000000)
T3760 000:439.535 - 0.009ms returns 0
T3760 000:439.545 JLINK_WriteReg(R8, 0x00000000)
T3760 000:439.557 - 0.011ms returns 0
T3760 000:439.567 JLINK_WriteReg(R9, 0x20000200)
T3760 000:439.577 - 0.009ms returns 0
T3760 000:439.586 JLINK_WriteReg(R10, 0x00000000)
T3760 000:439.595 - 0.009ms returns 0
T3760 000:439.605 JLINK_WriteReg(R11, 0x00000000)
T3760 000:439.614 - 0.009ms returns 0
T3760 000:439.624 JLINK_WriteReg(R12, 0x00000000)
T3760 000:439.633 - 0.009ms returns 0
T3760 000:439.643 JLINK_WriteReg(R13 (SP), 0x20008000)
T3760 000:439.652 - 0.009ms returns 0
T3760 000:439.662 JLINK_WriteReg(R14, 0x20000001)
T3760 000:439.671 - 0.009ms returns 0
T3760 000:439.681 JLINK_WriteReg(R15 (PC), 0x20000020)
T3760 000:439.690 - 0.009ms returns 0
T3760 000:439.700 JLINK_WriteReg(XPSR, 0x01000000)
T3760 000:439.709 - 0.009ms returns 0
T3760 000:439.718 JLINK_WriteReg(MSP, 0x20008000)
T3760 000:439.728 - 0.009ms returns 0
T3760 000:439.737 JLINK_WriteReg(PSP, 0x20008000)
T3760 000:439.746 - 0.009ms returns 0
T3760 000:439.756 JLINK_WriteReg(CFBP, 0x00000000)
T3760 000:439.765 - 0.009ms returns 0
T3760 000:439.775 JLINK_SetBPEx(Addr = 0x20000000, Type = 0xFFFFFFF2)
T3760 000:439.787   CPU_ReadMem(2 bytes @ 0x20000000)
T3760 000:440.360 - 0.584ms returns 0x00000004
T3760 000:440.385 JLINK_Go()
T3760 000:440.397   CPU_WriteMem(2 bytes @ 0x20000000)
T3760 000:441.021   CPU_ReadMem(4 bytes @ 0xE0001000)
T3760 000:443.629 - 3.243ms
T3760 000:443.662 JLINK_IsHalted()
T3760 000:445.808   CPU_ReadMem(2 bytes @ 0x20000000)
T3760 000:446.311 - 2.649ms returns TRUE
T3760 000:446.326 JLINK_ReadReg(R15 (PC))
T3760 000:446.337 - 0.011ms returns 0x20000000
T3760 000:446.347 JLINK_ClrBPEx(BPHandle = 0x00000004)
T3760 000:446.356 - 0.009ms returns 0x00
T3760 000:446.366 JLINK_ReadReg(R0)
T3760 000:446.376 - 0.009ms returns 0x00000000
T3760 000:446.573 JLINK_WriteMem(0x20000218, 0x1E8 Bytes, ...)
T3760 000:446.590   Data:  48 0A 00 20 D1 00 00 08 05 24 00 08 C9 1D 00 08 ...
T3760 000:446.611   CPU_WriteMem(488 bytes @ 0x20000218)
T3760 000:448.489 - 1.915ms returns 0x1E8
T3760 000:448.570 JLINK_WriteMem(0x20000400, 0x218 Bytes, ...)
T3760 000:448.580   Data:  FE E7 00 00 10 B5 3C 48 00 68 3C 49 09 68 40 1A ...
T3760 000:448.597   CPU_WriteMem(536 bytes @ 0x20000400)
T3760 000:450.552 - 1.983ms returns 0x218
T3760 000:450.570 JLINK_HasError()
T3760 000:450.580 JLINK_WriteReg(R0, 0x08000000)
T3760 000:450.591 - 0.010ms returns 0
T3760 000:450.601 JLINK_WriteReg(R1, 0x00000400)
T3760 000:450.610 - 0.009ms returns 0
T3760 000:450.620 JLINK_WriteReg(R2, 0x20000218)
T3760 000:450.629 - 0.009ms returns 0
T3760 000:450.638 JLINK_WriteReg(R3, 0x00000000)
T3760 000:450.648 - 0.009ms returns 0
T3760 000:450.657 JLINK_WriteReg(R4, 0x00000000)
T3760 000:450.667 - 0.009ms returns 0
T3760 000:450.676 JLINK_WriteReg(R5, 0x00000000)
T3760 000:450.686 - 0.009ms returns 0
T3760 000:450.695 JLINK_WriteReg(R6, 0x00000000)
T3760 000:450.704 - 0.009ms returns 0
T3760 000:450.714 JLINK_WriteReg(R7, 0x00000000)
T3760 000:450.723 - 0.009ms returns 0
T3760 000:450.733 JLINK_WriteReg(R8, 0x00000000)
T3760 000:450.742 - 0.009ms returns 0
T3760 000:450.752 JLINK_WriteReg(R9, 0x20000200)
T3760 000:450.761 - 0.009ms returns 0
T3760 000:450.771 JLINK_WriteReg(R10, 0x00000000)
T3760 000:450.780 - 0.009ms returns 0
T3760 000:450.790 JLINK_WriteReg(R11, 0x00000000)
T3760 000:450.799 - 0.009ms returns 0
T3760 000:450.809 JLINK_WriteReg(R12, 0x00000000)
T3760 000:450.818 - 0.009ms returns 0
T3760 000:450.828 JLINK_WriteReg(R13 (SP), 0x20008000)
T3760 000:450.838 - 0.009ms returns 0
T3760 000:450.847 JLINK_WriteReg(R14, 0x20000001)
T3760 000:450.857 - 0.009ms returns 0
T3760 000:450.866 JLINK_WriteReg(R15 (PC), 0x2000017E)
T3760 000:450.876 - 0.009ms returns 0
T3760 000:450.886 JLINK_WriteReg(XPSR, 0x01000000)
T3760 000:450.895 - 0.009ms returns 0
T3760 000:450.904 JLINK_WriteReg(MSP, 0x20008000)
T3760 000:450.914 - 0.009ms returns 0
T3760 000:450.923 JLINK_WriteReg(PSP, 0x20008000)
T3760 000:450.933 - 0.009ms returns 0
T3760 000:450.942 JLINK_WriteReg(CFBP, 0x00000000)
T3760 000:450.951 - 0.009ms returns 0
T3760 000:450.965 JLINK_SetBPEx(Addr = 0x20000000, Type = 0xFFFFFFF2)
T3760 000:450.975 - 0.010ms returns 0x00000005
T3760 000:450.985 JLINK_Go()
T3760 000:450.998   CPU_ReadMem(4 bytes @ 0xE0001000)
T3760 000:453.607 - 2.620ms
T3760 000:453.628 JLINK_IsHalted()
T3760 000:454.106 - 0.478ms returns FALSE
T3760 000:454.120 JLINK_HasError()
T3760 000:463.022 JLINK_IsHalted()
T3760 000:463.633 - 0.611ms returns FALSE
T3760 000:463.649 JLINK_HasError()
T3760 000:465.647 JLINK_IsHalted()
T3760 000:467.946   CPU_ReadMem(2 bytes @ 0x20000000)
T3760 000:468.402 - 2.752ms returns TRUE
T3760 000:468.416 JLINK_ReadReg(R15 (PC))
T3760 000:468.428 - 0.011ms returns 0x20000000
T3760 000:468.438 JLINK_ClrBPEx(BPHandle = 0x00000005)
T3760 000:468.448 - 0.010ms returns 0x00
T3760 000:468.458 JLINK_ReadReg(R0)
T3760 000:468.468 - 0.009ms returns 0x00000000
T3760 000:468.719 JLINK_WriteMem(0x20000218, 0x1E8 Bytes, ...)
T3760 000:468.736   Data:  08 70 08 46 00 78 04 28 04 D1 00 20 08 70 02 20 ...
T3760 000:468.755   CPU_WriteMem(488 bytes @ 0x20000218)
T3760 000:470.612 - 1.892ms returns 0x1E8
T3760 000:470.644 JLINK_WriteMem(0x20000400, 0x218 Bytes, ...)
T3760 000:470.653   Data:  45 48 05 68 20 68 06 68 1C 20 21 6C 01 40 04 20 ...
T3760 000:470.672   CPU_WriteMem(536 bytes @ 0x20000400)
T3760 000:472.716 - 2.072ms returns 0x218
T3760 000:472.732 JLINK_HasError()
T3760 000:472.743 JLINK_WriteReg(R0, 0x08000400)
T3760 000:472.753 - 0.010ms returns 0
T3760 000:472.763 JLINK_WriteReg(R1, 0x00000400)
T3760 000:472.772 - 0.009ms returns 0
T3760 000:472.782 JLINK_WriteReg(R2, 0x20000218)
T3760 000:472.791 - 0.009ms returns 0
T3760 000:472.801 JLINK_WriteReg(R3, 0x00000000)
T3760 000:472.810 - 0.009ms returns 0
T3760 000:472.820 JLINK_WriteReg(R4, 0x00000000)
T3760 000:472.829 - 0.009ms returns 0
T3760 000:472.839 JLINK_WriteReg(R5, 0x00000000)
T3760 000:472.848 - 0.009ms returns 0
T3760 000:472.858 JLINK_WriteReg(R6, 0x00000000)
T3760 000:472.867 - 0.009ms returns 0
T3760 000:472.877 JLINK_WriteReg(R7, 0x00000000)
T3760 000:472.886 - 0.009ms returns 0
T3760 000:472.895 JLINK_WriteReg(R8, 0x00000000)
T3760 000:472.905 - 0.009ms returns 0
T3760 000:472.914 JLINK_WriteReg(R9, 0x20000200)
T3760 000:472.924 - 0.009ms returns 0
T3760 000:472.933 JLINK_WriteReg(R10, 0x00000000)
T3760 000:472.943 - 0.009ms returns 0
T3760 000:472.952 JLINK_WriteReg(R11, 0x00000000)
T3760 000:472.962 - 0.009ms returns 0
T3760 000:472.971 JLINK_WriteReg(R12, 0x00000000)
T3760 000:472.981 - 0.009ms returns 0
T3760 000:472.990 JLINK_WriteReg(R13 (SP), 0x20008000)
T3760 000:473.000 - 0.009ms returns 0
T3760 000:473.010 JLINK_WriteReg(R14, 0x20000001)
T3760 000:473.020 - 0.009ms returns 0
T3760 000:473.030 JLINK_WriteReg(R15 (PC), 0x2000017E)
T3760 000:473.039 - 0.009ms returns 0
T3760 000:473.049 JLINK_WriteReg(XPSR, 0x01000000)
T3760 000:473.061 - 0.011ms returns 0
T3760 000:473.070 JLINK_WriteReg(MSP, 0x20008000)
T3760 000:473.080 - 0.009ms returns 0
T3760 000:473.094 JLINK_WriteReg(PSP, 0x20008000)
T3760 000:473.104 - 0.014ms returns 0
T3760 000:473.116 JLINK_WriteReg(CFBP, 0x00000000)
T3760 000:473.125 - 0.009ms returns 0
T3760 000:473.135 JLINK_SetBPEx(Addr = 0x20000000, Type = 0xFFFFFFF2)
T3760 000:473.146 - 0.010ms returns 0x00000006
T3760 000:473.156 JLINK_Go()
T3760 000:473.179   CPU_ReadMem(4 bytes @ 0xE0001000)
T3760 000:475.625 - 2.468ms
T3760 000:475.645 JLINK_IsHalted()
T3760 000:476.050 - 0.404ms returns FALSE
T3760 000:476.065 JLINK_HasError()
T3760 000:478.017 JLINK_IsHalted()
T3760 000:478.573 - 0.555ms returns FALSE
T3760 000:478.590 JLINK_HasError()
T3760 000:480.012 JLINK_IsHalted()
T3760 000:480.561 - 0.548ms returns FALSE
T3760 000:480.580 JLINK_HasError()
T3760 000:482.004 JLINK_IsHalted()
T3760 000:482.615 - 0.611ms returns FALSE
T3760 000:482.630 JLINK_HasError()
T3760 000:486.018 JLINK_IsHalted()
T3760 000:486.563 - 0.544ms returns FALSE
T3760 000:486.583 JLINK_HasError()
T3760 000:487.988 JLINK_IsHalted()
T3760 000:490.226   CPU_ReadMem(2 bytes @ 0x20000000)
T3760 000:490.687 - 2.698ms returns TRUE
T3760 000:490.705 JLINK_ReadReg(R15 (PC))
T3760 000:490.715 - 0.010ms returns 0x20000000
T3760 000:490.725 JLINK_ClrBPEx(BPHandle = 0x00000006)
T3760 000:490.734 - 0.009ms returns 0x00
T3760 000:490.744 JLINK_ReadReg(R0)
T3760 000:490.754 - 0.009ms returns 0x00000000
T3760 000:490.978 JLINK_WriteMem(0x20000218, 0x1E8 Bytes, ...)
T3760 000:490.995   Data:  56 00 03 25 B5 40 06 46 AE 43 30 46 0D 79 AD 07 ...
T3760 000:491.013   CPU_WriteMem(488 bytes @ 0x20000218)
T3760 000:492.840 - 1.861ms returns 0x1E8
T3760 000:492.856 JLINK_WriteMem(0x20000400, 0x218 Bytes, ...)
T3760 000:492.866   Data:  08 46 00 68 C0 07 C0 0F 00 90 00 BF 00 BF 00 BF ...
T3760 000:492.883   CPU_WriteMem(536 bytes @ 0x20000400)
T3760 000:494.940 - 2.082ms returns 0x218
T3760 000:495.039 JLINK_HasError()
T3760 000:495.050 JLINK_WriteReg(R0, 0x08000800)
T3760 000:495.060 - 0.010ms returns 0
T3760 000:495.077 JLINK_WriteReg(R1, 0x00000400)
T3760 000:495.086 - 0.009ms returns 0
T3760 000:495.096 JLINK_WriteReg(R2, 0x20000218)
T3760 000:495.105 - 0.009ms returns 0
T3760 000:495.115 JLINK_WriteReg(R3, 0x00000000)
T3760 000:495.124 - 0.009ms returns 0
T3760 000:495.134 JLINK_WriteReg(R4, 0x00000000)
T3760 000:495.143 - 0.009ms returns 0
T3760 000:495.153 JLINK_WriteReg(R5, 0x00000000)
T3760 000:495.162 - 0.009ms returns 0
T3760 000:495.171 JLINK_WriteReg(R6, 0x00000000)
T3760 000:495.181 - 0.009ms returns 0
T3760 000:495.190 JLINK_WriteReg(R7, 0x00000000)
T3760 000:495.199 - 0.009ms returns 0
T3760 000:495.209 JLINK_WriteReg(R8, 0x00000000)
T3760 000:495.218 - 0.009ms returns 0
T3760 000:495.228 JLINK_WriteReg(R9, 0x20000200)
T3760 000:495.237 - 0.009ms returns 0
T3760 000:495.247 JLINK_WriteReg(R10, 0x00000000)
T3760 000:495.256 - 0.009ms returns 0
T3760 000:495.266 JLINK_WriteReg(R11, 0x00000000)
T3760 000:495.275 - 0.009ms returns 0
T3760 000:495.285 JLINK_WriteReg(R12, 0x00000000)
T3760 000:495.294 - 0.009ms returns 0
T3760 000:495.304 JLINK_WriteReg(R13 (SP), 0x20008000)
T3760 000:495.313 - 0.009ms returns 0
T3760 000:495.323 JLINK_WriteReg(R14, 0x20000001)
T3760 000:495.332 - 0.009ms returns 0
T3760 000:495.342 JLINK_WriteReg(R15 (PC), 0x2000017E)
T3760 000:495.351 - 0.009ms returns 0
T3760 000:495.364 JLINK_WriteReg(XPSR, 0x01000000)
T3760 000:495.373 - 0.009ms returns 0
T3760 000:495.383 JLINK_WriteReg(MSP, 0x20008000)
T3760 000:495.392 - 0.009ms returns 0
T3760 000:495.402 JLINK_WriteReg(PSP, 0x20008000)
T3760 000:495.411 - 0.009ms returns 0
T3760 000:495.421 JLINK_WriteReg(CFBP, 0x00000000)
T3760 000:495.430 - 0.009ms returns 0
T3760 000:495.440 JLINK_SetBPEx(Addr = 0x20000000, Type = 0xFFFFFFF2)
T3760 000:495.450 - 0.009ms returns 0x00000007
T3760 000:495.459 JLINK_Go()
T3760 000:495.472   CPU_ReadMem(4 bytes @ 0xE0001000)
T3760 000:497.958 - 2.497ms
T3760 000:497.980 JLINK_IsHalted()
T3760 000:498.488 - 0.507ms returns FALSE
T3760 000:498.510 JLINK_HasError()
T3760 000:499.963 JLINK_IsHalted()
T3760 000:500.426 - 0.461ms returns FALSE
T3760 000:500.448 JLINK_HasError()
T3760 000:501.951 JLINK_IsHalted()
T3760 000:502.522 - 0.569ms returns FALSE
T3760 000:502.541 JLINK_HasError()
T3760 000:504.042 JLINK_IsHalted()
T3760 000:504.589 - 0.546ms returns FALSE
T3760 000:504.611 JLINK_HasError()
T3760 000:506.066 JLINK_IsHalted()
T3760 000:506.580 - 0.513ms returns FALSE
T3760 000:506.603 JLINK_HasError()
T3760 000:508.061 JLINK_IsHalted()
T3760 000:508.559 - 0.497ms returns FALSE
T3760 000:508.581 JLINK_HasError()
T3760 000:510.012 JLINK_IsHalted()
T3760 000:512.110   CPU_ReadMem(2 bytes @ 0x20000000)
T3760 000:512.642 - 2.630ms returns TRUE
T3760 000:512.665 JLINK_ReadReg(R15 (PC))
T3760 000:512.676 - 0.011ms returns 0x20000000
T3760 000:512.686 JLINK_ClrBPEx(BPHandle = 0x00000007)
T3760 000:512.696 - 0.009ms returns 0x00
T3760 000:512.705 JLINK_ReadReg(R0)
T3760 000:512.715 - 0.009ms returns 0x00000000
T3760 000:512.942 JLINK_WriteMem(0x20000218, 0x1E8 Bytes, ...)
T3760 000:512.961   Data:  02 97 00 E0 02 97 01 98 01 28 06 D1 36 48 C0 6B ...
T3760 000:513.026   CPU_WriteMem(488 bytes @ 0x20000218)
T3760 000:515.009 - 2.066ms returns 0x1E8
T3760 000:515.031 JLINK_WriteMem(0x20000400, 0x218 Bytes, ...)
T3760 000:515.043   Data:  08 40 00 28 01 D1 01 20 86 E7 31 48 80 68 C0 08 ...
T3760 000:515.060   CPU_WriteMem(536 bytes @ 0x20000400)
T3760 000:517.142 - 2.110ms returns 0x218
T3760 000:517.164 JLINK_HasError()
T3760 000:517.175 JLINK_WriteReg(R0, 0x08000C00)
T3760 000:517.186 - 0.011ms returns 0
T3760 000:517.196 JLINK_WriteReg(R1, 0x00000400)
T3760 000:517.206 - 0.009ms returns 0
T3760 000:517.215 JLINK_WriteReg(R2, 0x20000218)
T3760 000:517.225 - 0.009ms returns 0
T3760 000:517.234 JLINK_WriteReg(R3, 0x00000000)
T3760 000:517.244 - 0.009ms returns 0
T3760 000:517.253 JLINK_WriteReg(R4, 0x00000000)
T3760 000:517.263 - 0.009ms returns 0
T3760 000:517.273 JLINK_WriteReg(R5, 0x00000000)
T3760 000:517.282 - 0.009ms returns 0
T3760 000:517.291 JLINK_WriteReg(R6, 0x00000000)
T3760 000:517.301 - 0.009ms returns 0
T3760 000:517.310 JLINK_WriteReg(R7, 0x00000000)
T3760 000:517.320 - 0.009ms returns 0
T3760 000:517.329 JLINK_WriteReg(R8, 0x00000000)
T3760 000:517.339 - 0.009ms returns 0
T3760 000:517.348 JLINK_WriteReg(R9, 0x20000200)
T3760 000:517.357 - 0.009ms returns 0
T3760 000:517.367 JLINK_WriteReg(R10, 0x00000000)
T3760 000:517.377 - 0.009ms returns 0
T3760 000:517.386 JLINK_WriteReg(R11, 0x00000000)
T3760 000:517.395 - 0.009ms returns 0
T3760 000:517.405 JLINK_WriteReg(R12, 0x00000000)
T3760 000:517.414 - 0.009ms returns 0
T3760 000:517.424 JLINK_WriteReg(R13 (SP), 0x20008000)
T3760 000:517.434 - 0.009ms returns 0
T3760 000:517.443 JLINK_WriteReg(R14, 0x20000001)
T3760 000:517.453 - 0.009ms returns 0
T3760 000:517.462 JLINK_WriteReg(R15 (PC), 0x2000017E)
T3760 000:517.472 - 0.009ms returns 0
T3760 000:517.481 JLINK_WriteReg(XPSR, 0x01000000)
T3760 000:517.491 - 0.009ms returns 0
T3760 000:517.500 JLINK_WriteReg(MSP, 0x20008000)
T3760 000:517.510 - 0.009ms returns 0
T3760 000:517.519 JLINK_WriteReg(PSP, 0x20008000)
T3760 000:517.529 - 0.009ms returns 0
T3760 000:517.538 JLINK_WriteReg(CFBP, 0x00000000)
T3760 000:517.548 - 0.009ms returns 0
T3760 000:517.558 JLINK_SetBPEx(Addr = 0x20000000, Type = 0xFFFFFFF2)
T3760 000:517.567 - 0.010ms returns 0x00000008
T3760 000:517.577 JLINK_Go()
T3760 000:517.590   CPU_ReadMem(4 bytes @ 0xE0001000)
T3760 000:520.125 - 2.547ms
T3760 000:520.151 JLINK_IsHalted()
T3760 000:520.608 - 0.456ms returns FALSE
T3760 000:520.630 JLINK_HasError()
T3760 000:522.931 JLINK_IsHalted()
T3760 000:523.567 - 0.636ms returns FALSE
T3760 000:523.580 JLINK_HasError()
T3760 000:524.923 JLINK_IsHalted()
T3760 000:525.484 - 0.560ms returns FALSE
T3760 000:525.496 JLINK_HasError()
T3760 000:526.929 JLINK_IsHalted()
T3760 000:527.425 - 0.496ms returns FALSE
T3760 000:527.437 JLINK_HasError()
T3760 000:528.910 JLINK_IsHalted()
T3760 000:529.462 - 0.550ms returns FALSE
T3760 000:529.480 JLINK_HasError()
T3760 000:531.233 JLINK_IsHalted()
T3760 000:533.416   CPU_ReadMem(2 bytes @ 0x20000000)
T3760 000:533.984 - 2.750ms returns TRUE
T3760 000:533.997 JLINK_ReadReg(R15 (PC))
T3760 000:534.010 - 0.013ms returns 0x20000000
T3760 000:534.020 JLINK_ClrBPEx(BPHandle = 0x00000008)
T3760 000:534.030 - 0.009ms returns 0x00
T3760 000:534.039 JLINK_ReadReg(R0)
T3760 000:534.049 - 0.009ms returns 0x00000000
T3760 000:534.275 JLINK_WriteMem(0x20000218, 0x1E8 Bytes, ...)
T3760 000:534.295   Data:  E7 48 00 68 08 43 E6 49 08 60 21 E0 05 21 09 04 ...
T3760 000:534.313   CPU_WriteMem(488 bytes @ 0x20000218)
T3760 000:536.148 - 1.872ms returns 0x1E8
T3760 000:536.167 JLINK_WriteMem(0x20000400, 0x218 Bytes, ...)
T3760 000:536.177   Data:  00 28 3C D0 A0 69 00 28 39 D1 01 20 DF E6 A0 69 ...
T3760 000:536.194   CPU_WriteMem(536 bytes @ 0x20000400)
T3760 000:538.189 - 2.021ms returns 0x218
T3760 000:538.208 JLINK_HasError()
T3760 000:538.218 JLINK_WriteReg(R0, 0x08001000)
T3760 000:538.228 - 0.010ms returns 0
T3760 000:538.238 JLINK_WriteReg(R1, 0x00000400)
T3760 000:538.249 - 0.011ms returns 0
T3760 000:538.261 JLINK_WriteReg(R2, 0x20000218)
T3760 000:538.270 - 0.009ms returns 0
T3760 000:538.280 JLINK_WriteReg(R3, 0x00000000)
T3760 000:538.289 - 0.009ms returns 0
T3760 000:538.298 JLINK_WriteReg(R4, 0x00000000)
T3760 000:538.308 - 0.009ms returns 0
T3760 000:538.317 JLINK_WriteReg(R5, 0x00000000)
T3760 000:538.327 - 0.009ms returns 0
T3760 000:538.336 JLINK_WriteReg(R6, 0x00000000)
T3760 000:538.345 - 0.009ms returns 0
T3760 000:538.355 JLINK_WriteReg(R7, 0x00000000)
T3760 000:538.364 - 0.009ms returns 0
T3760 000:538.374 JLINK_WriteReg(R8, 0x00000000)
T3760 000:538.383 - 0.009ms returns 0
T3760 000:538.392 JLINK_WriteReg(R9, 0x20000200)
T3760 000:538.402 - 0.009ms returns 0
T3760 000:538.411 JLINK_WriteReg(R10, 0x00000000)
T3760 000:538.420 - 0.009ms returns 0
T3760 000:538.430 JLINK_WriteReg(R11, 0x00000000)
T3760 000:538.439 - 0.009ms returns 0
T3760 000:538.449 JLINK_WriteReg(R12, 0x00000000)
T3760 000:538.458 - 0.009ms returns 0
T3760 000:538.468 JLINK_WriteReg(R13 (SP), 0x20008000)
T3760 000:538.477 - 0.009ms returns 0
T3760 000:538.487 JLINK_WriteReg(R14, 0x20000001)
T3760 000:538.496 - 0.009ms returns 0
T3760 000:538.506 JLINK_WriteReg(R15 (PC), 0x2000017E)
T3760 000:538.515 - 0.009ms returns 0
T3760 000:538.525 JLINK_WriteReg(XPSR, 0x01000000)
T3760 000:538.534 - 0.009ms returns 0
T3760 000:538.543 JLINK_WriteReg(MSP, 0x20008000)
T3760 000:538.552 - 0.009ms returns 0
T3760 000:538.562 JLINK_WriteReg(PSP, 0x20008000)
T3760 000:538.571 - 0.009ms returns 0
T3760 000:538.581 JLINK_WriteReg(CFBP, 0x00000000)
T3760 000:538.590 - 0.009ms returns 0
T3760 000:538.600 JLINK_SetBPEx(Addr = 0x20000000, Type = 0xFFFFFFF2)
T3760 000:538.609 - 0.009ms returns 0x00000009
T3760 000:538.619 JLINK_Go()
T3760 000:538.634   CPU_ReadMem(4 bytes @ 0xE0001000)
T3760 000:541.212 - 2.592ms
T3760 000:541.225 JLINK_IsHalted()
T3760 000:541.795 - 0.568ms returns FALSE
T3760 000:541.811 JLINK_HasError()
T3760 000:542.942 JLINK_IsHalted()
T3760 000:543.436 - 0.492ms returns FALSE
T3760 000:543.454 JLINK_HasError()
T3760 000:544.941 JLINK_IsHalted()
T3760 000:545.566 - 0.624ms returns FALSE
T3760 000:545.585 JLINK_HasError()
T3760 000:546.939 JLINK_IsHalted()
T3760 000:547.498 - 0.558ms returns FALSE
T3760 000:547.516 JLINK_HasError()
T3760 000:548.933 JLINK_IsHalted()
T3760 000:549.595 - 0.661ms returns FALSE
T3760 000:549.617 JLINK_HasError()
T3760 000:550.944 JLINK_IsHalted()
T3760 000:551.423 - 0.476ms returns FALSE
T3760 000:551.446 JLINK_HasError()
T3760 000:552.925 JLINK_IsHalted()
T3760 000:555.083   CPU_ReadMem(2 bytes @ 0x20000000)
T3760 000:555.550 - 2.623ms returns TRUE
T3760 000:555.563 JLINK_ReadReg(R15 (PC))
T3760 000:555.573 - 0.010ms returns 0x20000000
T3760 000:555.583 JLINK_ClrBPEx(BPHandle = 0x00000009)
T3760 000:555.593 - 0.009ms returns 0x00
T3760 000:555.602 JLINK_ReadReg(R0)
T3760 000:555.612 - 0.009ms returns 0x00000000
T3760 000:555.835 JLINK_WriteMem(0x20000218, 0x1E8 Bytes, ...)
T3760 000:555.851   Data:  7E D0 E0 69 02 28 51 D1 52 48 40 38 00 68 01 21 ...
T3760 000:555.869   CPU_WriteMem(488 bytes @ 0x20000218)
T3760 000:557.736 - 1.899ms returns 0x1E8
T3760 000:557.824 JLINK_WriteMem(0x20000400, 0x218 Bytes, ...)
T3760 000:557.837   Data:  10 46 01 24 A4 02 A0 43 4C 68 20 43 02 46 10 46 ...
T3760 000:557.858   CPU_WriteMem(536 bytes @ 0x20000400)
T3760 000:559.916 - 2.091ms returns 0x218
T3760 000:559.939 JLINK_HasError()
T3760 000:559.952 JLINK_WriteReg(R0, 0x08001400)
T3760 000:559.963 - 0.011ms returns 0
T3760 000:560.043 JLINK_WriteReg(R1, 0x00000400)
T3760 000:560.067 - 0.024ms returns 0
T3760 000:560.077 JLINK_WriteReg(R2, 0x20000218)
T3760 000:560.087 - 0.009ms returns 0
T3760 000:560.096 JLINK_WriteReg(R3, 0x00000000)
T3760 000:560.106 - 0.009ms returns 0
T3760 000:560.115 JLINK_WriteReg(R4, 0x00000000)
T3760 000:560.124 - 0.009ms returns 0
T3760 000:560.134 JLINK_WriteReg(R5, 0x00000000)
T3760 000:560.143 - 0.009ms returns 0
T3760 000:560.153 JLINK_WriteReg(R6, 0x00000000)
T3760 000:560.164 - 0.011ms returns 0
T3760 000:560.175 JLINK_WriteReg(R7, 0x00000000)
T3760 000:560.184 - 0.009ms returns 0
T3760 000:560.194 JLINK_WriteReg(R8, 0x00000000)
T3760 000:560.203 - 0.009ms returns 0
T3760 000:560.212 JLINK_WriteReg(R9, 0x20000200)
T3760 000:560.222 - 0.009ms returns 0
T3760 000:560.231 JLINK_WriteReg(R10, 0x00000000)
T3760 000:560.241 - 0.009ms returns 0
T3760 000:560.250 JLINK_WriteReg(R11, 0x00000000)
T3760 000:560.259 - 0.009ms returns 0
T3760 000:560.269 JLINK_WriteReg(R12, 0x00000000)
T3760 000:560.278 - 0.009ms returns 0
T3760 000:560.288 JLINK_WriteReg(R13 (SP), 0x20008000)
T3760 000:560.297 - 0.009ms returns 0
T3760 000:560.307 JLINK_WriteReg(R14, 0x20000001)
T3760 000:560.316 - 0.009ms returns 0
T3760 000:560.325 JLINK_WriteReg(R15 (PC), 0x2000017E)
T3760 000:560.335 - 0.009ms returns 0
T3760 000:560.344 JLINK_WriteReg(XPSR, 0x01000000)
T3760 000:560.353 - 0.009ms returns 0
T3760 000:560.363 JLINK_WriteReg(MSP, 0x20008000)
T3760 000:560.372 - 0.009ms returns 0
T3760 000:560.381 JLINK_WriteReg(PSP, 0x20008000)
T3760 000:560.391 - 0.009ms returns 0
T3760 000:560.400 JLINK_WriteReg(CFBP, 0x00000000)
T3760 000:560.409 - 0.009ms returns 0
T3760 000:560.419 JLINK_SetBPEx(Addr = 0x20000000, Type = 0xFFFFFFF2)
T3760 000:560.429 - 0.010ms returns 0x0000000A
T3760 000:560.438 JLINK_Go()
T3760 000:560.452   CPU_ReadMem(4 bytes @ 0xE0001000)
T3760 000:563.060 - 2.621ms
T3760 000:563.082 JLINK_IsHalted()
T3760 000:563.582 - 0.499ms returns FALSE
T3760 000:563.604 JLINK_HasError()
T3760 000:565.053 JLINK_IsHalted()
T3760 000:565.561 - 0.507ms returns FALSE
T3760 000:565.583 JLINK_HasError()
T3760 000:567.059 JLINK_IsHalted()
T3760 000:567.588 - 0.529ms returns FALSE
T3760 000:567.611 JLINK_HasError()
T3760 000:568.931 JLINK_IsHalted()
T3760 000:569.451 - 0.520ms returns FALSE
T3760 000:569.473 JLINK_HasError()
T3760 000:570.931 JLINK_IsHalted()
T3760 000:571.444 - 0.513ms returns FALSE
T3760 000:571.467 JLINK_HasError()
T3760 000:572.937 JLINK_IsHalted()
T3760 000:573.474 - 0.537ms returns FALSE
T3760 000:573.497 JLINK_HasError()
T3760 000:574.957 JLINK_IsHalted()
T3760 000:577.073   CPU_ReadMem(2 bytes @ 0x20000000)
T3760 000:577.558 - 2.600ms returns TRUE
T3760 000:577.580 JLINK_ReadReg(R15 (PC))
T3760 000:577.593 - 0.012ms returns 0x20000000
T3760 000:577.603 JLINK_ClrBPEx(BPHandle = 0x0000000A)
T3760 000:577.612 - 0.009ms returns 0x00
T3760 000:577.622 JLINK_ReadReg(R0)
T3760 000:577.632 - 0.009ms returns 0x00000000
T3760 000:577.907 JLINK_WriteMem(0x20000218, 0x1E8 Bytes, ...)
T3760 000:577.925   Data:  11 40 00 91 00 BF 13 E0 0D 4A 01 68 91 42 0F D1 ...
T3760 000:577.944   CPU_WriteMem(488 bytes @ 0x20000218)
T3760 000:579.825 - 1.918ms returns 0x1E8
T3760 000:579.848 JLINK_WriteMem(0x20000400, 0x218 Bytes, ...)
T3760 000:579.858   Data:  C0 07 C0 0F 00 90 00 BF 00 BF 80 20 01 90 02 20 ...
T3760 000:579.876   CPU_WriteMem(536 bytes @ 0x20000400)
T3760 000:581.951 - 2.102ms returns 0x218
T3760 000:581.991 JLINK_HasError()
T3760 000:582.005 JLINK_WriteReg(R0, 0x08001800)
T3760 000:582.021 - 0.015ms returns 0
T3760 000:582.043 JLINK_WriteReg(R1, 0x00000400)
T3760 000:582.056 - 0.012ms returns 0
T3760 000:582.076 JLINK_WriteReg(R2, 0x20000218)
T3760 000:582.086 - 0.010ms returns 0
T3760 000:582.103 JLINK_WriteReg(R3, 0x00000000)
T3760 000:582.113 - 0.009ms returns 0
T3760 000:582.123 JLINK_WriteReg(R4, 0x00000000)
T3760 000:582.133 - 0.010ms returns 0
T3760 000:582.143 JLINK_WriteReg(R5, 0x00000000)
T3760 000:582.155 - 0.012ms returns 0
T3760 000:582.167 JLINK_WriteReg(R6, 0x00000000)
T3760 000:582.184 - 0.015ms returns 0
T3760 000:582.194 JLINK_WriteReg(R7, 0x00000000)
T3760 000:582.203 - 0.009ms returns 0
T3760 000:582.220 JLINK_WriteReg(R8, 0x00000000)
T3760 000:582.229 - 0.014ms returns 0
T3760 000:582.239 JLINK_WriteReg(R9, 0x20000200)
T3760 000:582.248 - 0.009ms returns 0
T3760 000:582.258 JLINK_WriteReg(R10, 0x00000000)
T3760 000:582.268 - 0.009ms returns 0
T3760 000:582.278 JLINK_WriteReg(R11, 0x00000000)
T3760 000:582.291 - 0.013ms returns 0
T3760 000:582.305 JLINK_WriteReg(R12, 0x00000000)
T3760 000:582.316 - 0.010ms returns 0
T3760 000:582.326 JLINK_WriteReg(R13 (SP), 0x20008000)
T3760 000:582.344 - 0.019ms returns 0
T3760 000:582.354 JLINK_WriteReg(R14, 0x20000001)
T3760 000:582.367 - 0.013ms returns 0
T3760 000:582.378 JLINK_WriteReg(R15 (PC), 0x2000017E)
T3760 000:582.389 - 0.011ms returns 0
T3760 000:582.399 JLINK_WriteReg(XPSR, 0x01000000)
T3760 000:582.408 - 0.009ms returns 0
T3760 000:582.419 JLINK_WriteReg(MSP, 0x20008000)
T3760 000:582.430 - 0.011ms returns 0
T3760 000:582.439 JLINK_WriteReg(PSP, 0x20008000)
T3760 000:582.449 - 0.009ms returns 0
T3760 000:582.459 JLINK_WriteReg(CFBP, 0x00000000)
T3760 000:582.468 - 0.009ms returns 0
T3760 000:582.479 JLINK_SetBPEx(Addr = 0x20000000, Type = 0xFFFFFFF2)
T3760 000:582.489 - 0.010ms returns 0x0000000B
T3760 000:582.505 JLINK_Go()
T3760 000:582.527   CPU_ReadMem(4 bytes @ 0xE0001000)
T3760 000:585.004 - 2.500ms
T3760 000:585.029 JLINK_IsHalted()
T3760 000:585.551 - 0.521ms returns FALSE
T3760 000:585.573 JLINK_HasError()
T3760 000:587.908 JLINK_IsHalted()
T3760 000:588.440 - 0.531ms returns FALSE
T3760 000:588.459 JLINK_HasError()
T3760 000:589.898 JLINK_IsHalted()
T3760 000:590.437 - 0.538ms returns FALSE
T3760 000:590.456 JLINK_HasError()
T3760 000:591.891 JLINK_IsHalted()
T3760 000:592.373 - 0.480ms returns FALSE
T3760 000:592.392 JLINK_HasError()
T3760 000:593.889 JLINK_IsHalted()
T3760 000:594.374 - 0.484ms returns FALSE
T3760 000:594.393 JLINK_HasError()
T3760 000:595.884 JLINK_IsHalted()
T3760 000:598.017   CPU_ReadMem(2 bytes @ 0x20000000)
T3760 000:598.496 - 2.612ms returns TRUE
T3760 000:598.524 JLINK_ReadReg(R15 (PC))
T3760 000:598.536 - 0.012ms returns 0x20000000
T3760 000:598.547 JLINK_ClrBPEx(BPHandle = 0x0000000B)
T3760 000:598.557 - 0.010ms returns 0x00
T3760 000:598.568 JLINK_ReadReg(R0)
T3760 000:598.578 - 0.010ms returns 0x00000000
T3760 000:598.925 JLINK_WriteMem(0x20000218, 0x1E8 Bytes, ...)
T3760 000:598.943   Data:  01 55 45 20 01 55 46 20 01 55 47 20 01 55 00 BF ...
T3760 000:598.968   CPU_WriteMem(488 bytes @ 0x20000218)
T3760 000:600.769 - 1.844ms returns 0x1E8
T3760 000:600.816 JLINK_WriteMem(0x20000400, 0x218 Bytes, ...)
T3760 000:600.826   Data:  00 BF 00 22 01 21 09 20 FE F7 48 FE 09 20 FE F7 ...
T3760 000:600.845   CPU_WriteMem(536 bytes @ 0x20000400)
T3760 000:602.829 - 2.011ms returns 0x218
T3760 000:602.848 JLINK_HasError()
T3760 000:602.859 JLINK_WriteReg(R0, 0x08001C00)
T3760 000:602.870 - 0.011ms returns 0
T3760 000:602.880 JLINK_WriteReg(R1, 0x00000400)
T3760 000:602.890 - 0.009ms returns 0
T3760 000:602.900 JLINK_WriteReg(R2, 0x20000218)
T3760 000:602.910 - 0.009ms returns 0
T3760 000:602.920 JLINK_WriteReg(R3, 0x00000000)
T3760 000:602.929 - 0.009ms returns 0
T3760 000:602.939 JLINK_WriteReg(R4, 0x00000000)
T3760 000:602.949 - 0.009ms returns 0
T3760 000:602.959 JLINK_WriteReg(R5, 0x00000000)
T3760 000:602.968 - 0.009ms returns 0
T3760 000:602.981 JLINK_WriteReg(R6, 0x00000000)
T3760 000:602.990 - 0.009ms returns 0
T3760 000:603.000 JLINK_WriteReg(R7, 0x00000000)
T3760 000:603.010 - 0.009ms returns 0
T3760 000:603.020 JLINK_WriteReg(R8, 0x00000000)
T3760 000:603.030 - 0.009ms returns 0
T3760 000:603.040 JLINK_WriteReg(R9, 0x20000200)
T3760 000:603.049 - 0.009ms returns 0
T3760 000:603.059 JLINK_WriteReg(R10, 0x00000000)
T3760 000:603.069 - 0.009ms returns 0
T3760 000:603.079 JLINK_WriteReg(R11, 0x00000000)
T3760 000:603.089 - 0.009ms returns 0
T3760 000:603.099 JLINK_WriteReg(R12, 0x00000000)
T3760 000:603.108 - 0.009ms returns 0
T3760 000:603.119 JLINK_WriteReg(R13 (SP), 0x20008000)
T3760 000:603.129 - 0.010ms returns 0
T3760 000:603.139 JLINK_WriteReg(R14, 0x20000001)
T3760 000:603.148 - 0.009ms returns 0
T3760 000:603.158 JLINK_WriteReg(R15 (PC), 0x2000017E)
T3760 000:603.168 - 0.009ms returns 0
T3760 000:603.178 JLINK_WriteReg(XPSR, 0x01000000)
T3760 000:603.188 - 0.009ms returns 0
T3760 000:603.198 JLINK_WriteReg(MSP, 0x20008000)
T3760 000:603.210 - 0.011ms returns 0
T3760 000:603.222 JLINK_WriteReg(PSP, 0x20008000)
T3760 000:603.232 - 0.009ms returns 0
T3760 000:603.242 JLINK_WriteReg(CFBP, 0x00000000)
T3760 000:603.251 - 0.009ms returns 0
T3760 000:603.262 JLINK_SetBPEx(Addr = 0x20000000, Type = 0xFFFFFFF2)
T3760 000:603.272 - 0.010ms returns 0x0000000C
T3760 000:603.283 JLINK_Go()
T3760 000:603.297   CPU_ReadMem(4 bytes @ 0xE0001000)
T3760 000:605.776 - 2.492ms
T3760 000:605.795 JLINK_IsHalted()
T3760 000:606.269 - 0.472ms returns FALSE
T3760 000:606.286 JLINK_HasError()
T3760 000:607.850 JLINK_IsHalted()
T3760 000:608.324 - 0.473ms returns FALSE
T3760 000:608.340 JLINK_HasError()
T3760 000:609.825 JLINK_IsHalted()
T3760 000:610.314 - 0.489ms returns FALSE
T3760 000:610.328 JLINK_HasError()
T3760 000:611.840 JLINK_IsHalted()
T3760 000:612.323 - 0.481ms returns FALSE
T3760 000:612.343 JLINK_HasError()
T3760 000:613.834 JLINK_IsHalted()
T3760 000:614.344 - 0.509ms returns FALSE
T3760 000:614.366 JLINK_HasError()
T3760 000:615.859 JLINK_IsHalted()
T3760 000:616.423 - 0.563ms returns FALSE
T3760 000:616.447 JLINK_HasError()
T3760 000:617.830 JLINK_IsHalted()
T3760 000:619.940   CPU_ReadMem(2 bytes @ 0x20000000)
T3760 000:620.429 - 2.598ms returns TRUE
T3760 000:620.453 JLINK_ReadReg(R15 (PC))
T3760 000:620.465 - 0.012ms returns 0x20000000
T3760 000:620.476 JLINK_ClrBPEx(BPHandle = 0x0000000C)
T3760 000:620.488 - 0.012ms returns 0x00
T3760 000:620.498 JLINK_ReadReg(R0)
T3760 000:620.508 - 0.009ms returns 0x00000000
T3760 000:620.830 JLINK_WriteMem(0x20000218, 0x1E8 Bytes, ...)
T3760 000:620.849   Data:  FF F7 D4 FD 00 28 01 D0 FE F7 EC F8 60 20 00 90 ...
T3760 000:620.869   CPU_WriteMem(488 bytes @ 0x20000218)
T3760 000:622.733 - 1.901ms returns 0x1E8
T3760 000:622.749 JLINK_WriteMem(0x20000400, 0x218 Bytes, ...)
